
T1360 001:748 SEGGER J-Link V4.62 Log File (0000ms, 1748ms total)
T1360 001:748 DLL Compiled: Jan 25 2013 15:19:47 (0000ms, 1748ms total)
T1360 001:748 Logging started @ 2013-08-07 18:32 (0000ms, 1748ms total)
T1360 001:748 JLINK_SetWarnOutHandler(...) (0000ms, 1748ms total)
T1360 001:748 JLINK_OpenEx(...)
Firmware: J-Link ARM V8 compiled Dec  1 2009 11:42:48
Hardware: V8.00
S/N: 17935099
Feature(s): RDI,FlashDL,FlashBP,JFlash  returns O.K. (0556ms, 2304ms total)
T1360 002:304 JLINK_SetErrorOutHandler(...) (0000ms, 2304ms total)
T1360 002:304 JLINK_ExecCommand("ProjectFile = "C:\Documents and Settings\dell\×ÀÃæ\uCGUIuCOSV2\User\JLinkSettings.ini"", ...)  returns 0x00 (0000ms, 2304ms total)
T1360 002:304 JLINK_ExecCommand("Device = STM32F103ZE", ...)
                JLINK_ExecCommand("map ram 0x20000000 - 0x2000FFFF", ...)  returns 0x00 (0000ms, 0000ms total)
                JLINK_AddMirrorAreaEx(Addr = 0x00000000, Size = 0x00000000) (0000ms, 0000ms total)
              Device "STM32F103ZE" selected (512 KB flash, 64 KB RAM).  returns 0x00 (0002ms, 2306ms total)
T1360 002:306 JLINK_ExecCommand("DisableConnectionTimeout", ...)  returns 0x00 (0000ms, 2306ms total)
T1360 002:306 JLINK_TIF_Select(JLINKARM_TIF_SWD)  returns 0x00 (0005ms, 2311ms total)
T1360 002:311 JLINK_SetSpeed(5000) (0001ms, 2312ms total)
T1360 002:312 JLINK_GetHardwareVersion()  returns 0x13880 (0000ms, 2312ms total)
T1360 002:312 JLINK_GetDLLVersion()  returns 46200 (0000ms, 2312ms total)
T1360 002:312 JLINK_GetFirmwareString(...) (0000ms, 2312ms total)
T1360 002:313 JLINK_GetDLLVersion()  returns 46200 (0000ms, 2312ms total)
T1360 002:313 JLINK_GetCompileDateTime() (0000ms, 2312ms total)
T1360 002:314 JLINK_GetFirmwareString(...) (0000ms, 2312ms total)
T1360 002:314 JLINK_GetHardwareVersion()  returns 0x13880 (0000ms, 2312ms total)
T1360 002:314 JLINK_GetId() >0x108 TIF>Found SWD-DP with ID 0x1BA01477 >0x0D TIF> >0x28 TIF> >0x0D TIF> >0x28 TIF> >0x0D TIF> >0x21 TIF> >0x0D TIF> >0x28 TIF> >0x0D TIF> >0x28 TIF> >0x0D TIF> >0x28 TIF> >0x0D TIF> >0x21 TIF> >0x0D TIF> >0x21 TIF> >0x0D TIF> >0x28 TIF> >0x0D TIF> >0x21 TIF> >0x0D TIF> >0x21 TIF> >0x108 TIF>Found SWD-DP with ID 0x1BA01477 >0x0D TIF> >0x21 TIF> >0x0D TIF> >0x28 TIF> >0x0D TIF> >0x28 TIF> >0x0D TIF> >0x21 TIF> >0x0D TIF> >0x21 TIF> >0x0D TIF> >0x28 TIF> >0x0D TIF> >0x21 TIF>
 >0x0D TIF> >0x21 TIF> >0x0D TIF> >0x21 TIF> >0x0D TIF> >0x21 TIF> >0x0D TIF> >0x28 TIF> >0x0D TIF> >0x21 TIF> >0x0D TIF> >0x28 TIF> >0x0D TIF> >0x28 TIF> >0x0D TIF> >0x21 TIF> >0x0D TIF> >0x21 TIF> >0x0D TIF> >0x28 TIF> >0x0D TIF> >0x21 TIF> >0x0D TIF> >0x21 TIF> >0x0D TIF> >0x28 TIF> >0x0D TIF> >0x28 TIF> >0x0D TIF> >0x28 TIF> >0x0D TIF> >0x21 TIF> >0x0D TIF> >0x21 TIF> >0x0D TIF> >0x28 TIF> >0x0D TIF> >0x28 TIF> >0x0D TIF> >0x28 TIF> >0x0D TIF> >0x21 TIF> >0x0D TIF> >0x21 TIF> >0x0D TIF> >0x21 TIF>
TPIU fitted.ETM fitted. >0x0D TIF> >0x28 TIF> >0x0D TIF> >0x21 TIF> >0x0D TIF> >0x21 TIF> >0x0D TIF> >0x28 TIF> >0x0D TIF> >0x21 TIF> >0x0D TIF> >0x21 TIF>FPUnit: 6 code (BP) slots and 2 literal slots >0x0D TIF> >0x28 TIF> >0x0D TIF> >0x21 TIF> >0x0D TIF> >0x21 TIF> >0x0D TIF> >0x28 TIF> >0x0D TIF> >0x21 TIF> >0x0D TIF> >0x21 TIF> >0x0D TIF> >0x28 TIF> >0x0D TIF> >0x21 TIF> >0x0D TIF> >0x21 TIF> >0x0D TIF> >0x28 TIF> >0x0D TIF> >0x21 TIF> >0x0D TIF> >0x21 TIF>Found Cortex-M3 r1p1, Little endian.
 >0x0D TIF> >0x28 TIF> >0x0D TIF> >0x21 TIF>  returns 0x1BA01477 (0251ms, 2563ms total)
T1360 002:565 JLINK_GetDeviceFamily()  returns 3 (0000ms, 2563ms total)
T1360 002:565 JLINK_ReadMem (0xE00FFFF0, 0x0010 Bytes, ...) -- CPU is running -- CPU_ReadMem(16 bytes @ 0xE00FFFF0) -- Data:  0D 00 00 00 10 00 00 00 05 00 00 00 B1 00 00 00  returns 0x00 (0003ms, 2566ms total)
T1360 002:568 JLINK_ReadMem (0xE00FFFD0, 0x0020 Bytes, ...) -- CPU is running -- CPU_ReadMem(32 bytes @ 0xE00FFFD0) -- Data:  00 00 00 00 00 00 00 00 00 00 00 00 00 00 00 00 ...  returns 0x00 (0001ms, 2567ms total)
T1360 002:569 JLINK_ReadMem (0xE00FF000, 0x0018 Bytes, ...) -- CPU is running -- CPU_ReadMem(24 bytes @ 0xE00FF000) -- Data:  03 F0 F0 FF 03 20 F0 FF 03 30 F0 FF 03 10 F0 FF ...  returns 0x00 (0001ms, 2568ms total)
T1360 002:570 JLINK_ReadMemU32(0xE000ED00, 0x0001 Items, ...) -- CPU is running -- CPU_ReadMem(4 bytes @ 0xE000ED00) -- Data:  31 C2 1F 41  returns 0x01 (0001ms, 2569ms total)
T1360 002:571 JLINK_SetResetType(JLINKARM_RESET_TYPE_NORMAL)  returns JLINKARM_RESET_TYPE_NORMAL (0000ms, 2569ms total)
T1360 002:571 JLINK_Reset() -- CPU_WriteMem(4 bytes @ 0xE0002000) (0016ms, 2585ms total)
T1360 002:587 JLINK_ReadReg(R15)  returns 0x08008C24 (0000ms, 2585ms total)
T1360 002:587 JLINK_ReadReg(XPSR)  returns 0x01000000 (0000ms, 2585ms total)
T1360 002:587 JLINK_Halt()  returns 0x00 (0000ms, 2585ms total)
T1360 002:587 JLINK_IsHalted()  returns TRUE (0000ms, 2585ms total)
T1360 002:587 JLINK_ReadMemU32(0xE000EDF0, 0x0001 Items, ...) -- CPU_ReadMem(4 bytes @ 0xE000EDF0) -- Data:  03 00 03 00  returns 0x01 (0001ms, 2586ms total)
T1360 002:588 JLINK_WriteU32(0xE000EDF0, 0xA05F0003) -- CPU_WriteMem(4 bytes @ 0xE000EDF0)  returns 0x00 (0001ms, 2587ms total)
T1360 002:589 JLINK_WriteU32(0xE000EDFC, 0x01000000) -- CPU_WriteMem(4 bytes @ 0xE000EDFC)  returns 0x00 (0001ms, 2588ms total)
T1360 002:590 JLINK_GetHWStatus(...)  returns 0x00 (0001ms, 2589ms total)
T1360 002:591 JLINK_GetNumBPUnits(Type = 0xFFFFFF00)  returns 0x06 (0000ms, 2589ms total)
T1360 002:591 JLINK_GetNumBPUnits(Type = 0xF0)  returns 0x2000 (0000ms, 2589ms total)
T1360 002:591 JLINK_GetNumWPUnits()  returns 0x04 (0000ms, 2589ms total)
T1360 002:591 JLINK_GetSpeed()  returns 0xFA0 (0000ms, 2589ms total)
T1360 002:591 JLINK_ReadMemU32(0xE000E004, 0x0001 Items, ...) -- CPU_ReadMem(4 bytes @ 0xE000E004) -- Data:  01 00 00 00  returns 0x01 (0001ms, 2590ms total)
T1360 002:592 JLINK_ReadMemU32(0xE000E004, 0x0001 Items, ...) -- CPU_ReadMem(4 bytes @ 0xE000E004) -- Data:  01 00 00 00  returns 0x01 (0001ms, 2591ms total)
T1360 002:593 JLINK_WriteMem(0xE0001000, 0x001C Bytes, ...) -- Data:  01 00 00 00 00 00 00 00 00 00 00 00 00 00 00 00 ... -- CPU_WriteMem(28 bytes @ 0xE0001000)  returns 0x1C (0001ms, 2592ms total)
T1360 002:594 JLINK_ReadMem (0xE0001000, 0x001C Bytes, ...) -- CPU_ReadMem(28 bytes @ 0xE0001000) -- Data:  01 00 00 40 00 00 00 00 00 00 00 00 00 00 00 00 ...  returns 0x00 (0001ms, 2593ms total)
T1360 002:595 JLINK_ReadReg(R15)  returns 0x08008C24 (0000ms, 2593ms total)
T1360 002:595 JLINK_ReadReg(XPSR)  returns 0x01000000 (0000ms, 2593ms total)
T1360 003:031 JLINK_SetResetType(JLINKARM_RESET_TYPE_NORMAL)  returns JLINKARM_RESET_TYPE_NORMAL (0000ms, 2593ms total)
T1360 003:031 JLINK_Reset() -- CPU_WriteMem(4 bytes @ 0xE0002000) (0015ms, 2608ms total)
T1360 003:046 JLINK_ReadReg(R15)  returns 0x08008C24 (0000ms, 2608ms total)
T1360 003:046 JLINK_ReadReg(XPSR)  returns 0x01000000 (0000ms, 2608ms total)
T1360 003:081 JLINK_ReadMem (0x08008C24, 0x003C Bytes, ...) -- CPU_ReadMem(128 bytes @ 0x08008C00) -- Updating C cache (128 bytes @ 0x08008C00) -- Read from C cache (60 bytes @ 0x08008C24) -- Data:  06 48 80 47 06 48 00 47 FE E7 FE E7 FE E7 FE E7 ...  returns 0x00 (0002ms, 2610ms total)
T4430 005:289 JLINK_SetBPEx(Addr = 0x0800024C, Type = 0xFFFFFFF2)  returns 0x00000001 (0001ms, 2611ms total)
T4430 005:290 JLINK_Go() -- CPU_WriteMem(4 bytes @ 0xE0002008) -- CPU_WriteMem(4 bytes @ 0xE000200C) -- CPU_WriteMem(4 bytes @ 0xE0002010) -- CPU_WriteMem(4 bytes @ 0xE0002014) -- CPU_WriteMem(4 bytes @ 0xE0002018) -- CPU_WriteMem(4 bytes @ 0xE000201C) (0009ms, 2620ms total)
T4430 005:399 JLINK_IsHalted()  returns TRUE (0003ms, 2623ms total)
T4430 005:402 JLINK_Halt()  returns 0x00 (0000ms, 2620ms total)
T4430 005:402 JLINK_IsHalted()  returns TRUE (0000ms, 2620ms total)
T4430 005:402 JLINK_IsHalted()  returns TRUE (0000ms, 2620ms total)
T4430 005:402 JLINK_IsHalted()  returns TRUE (0000ms, 2620ms total)
T4430 005:402 JLINK_ReadReg(R15)  returns 0x0800024C (0000ms, 2620ms total)
T4430 005:402 JLINK_ReadReg(XPSR)  returns 0x61000000 (0000ms, 2620ms total)
T4430 005:402 JLINK_ClrBPEx(BPHandle = 0x00000001)  returns 0x00 (0000ms, 2620ms total)
T4430 005:402 JLINK_ReadMemU32(0xE000ED30, 0x0001 Items, ...) -- CPU_ReadMem(4 bytes @ 0xE000ED30) -- Data:  0B 00 00 00  returns 0x01 (0001ms, 2621ms total)
T4430 005:403 JLINK_ReadMemU32(0xE0001028, 0x0001 Items, ...) -- CPU_ReadMem(4 bytes @ 0xE0001028) -- Data:  00 00 00 00  returns 0x01 (0001ms, 2622ms total)
T4430 005:404 JLINK_ReadMemU32(0xE0001038, 0x0001 Items, ...) -- CPU_ReadMem(4 bytes @ 0xE0001038) -- Data:  00 00 00 00  returns 0x01 (0001ms, 2623ms total)
T4430 005:405 JLINK_ReadMemU32(0xE0001048, 0x0001 Items, ...) -- CPU_ReadMem(4 bytes @ 0xE0001048) -- Data:  00 00 00 00  returns 0x01 (0001ms, 2624ms total)
T4430 005:406 JLINK_ReadMemU32(0xE0001058, 0x0001 Items, ...) -- CPU_ReadMem(4 bytes @ 0xE0001058) -- Data:  00 00 00 00  returns 0x01 (0001ms, 2625ms total)
T4430 005:408 JLINK_ReadReg(R0)  returns 0x0800024D (0000ms, 2625ms total)
T4430 005:408 JLINK_ReadReg(R1)  returns 0x200088A8 (0000ms, 2625ms total)
T4430 005:408 JLINK_ReadReg(R2)  returns 0x00000000 (0000ms, 2625ms total)
T4430 005:408 JLINK_ReadReg(R3)  returns 0x08013D75 (0000ms, 2625ms total)
T4430 005:408 JLINK_ReadReg(R4)  returns 0x0804E6FC (0000ms, 2625ms total)
T4430 005:408 JLINK_ReadReg(R5)  returns 0x0804E6FC (0000ms, 2625ms total)
T4430 005:408 JLINK_ReadReg(R6)  returns 0x06060606 (0000ms, 2625ms total)
T4430 005:408 JLINK_ReadReg(R7)  returns 0x07070707 (0000ms, 2625ms total)
T4430 005:408 JLINK_ReadReg(R8)  returns 0x08080808 (0000ms, 2625ms total)
T4430 005:408 JLINK_ReadReg(R9)  returns 0x09090909 (0000ms, 2625ms total)
T4430 005:408 JLINK_ReadReg(R10)  returns 0x10101010 (0000ms, 2625ms total)
T4430 005:408 JLINK_ReadReg(R11)  returns 0x11111111 (0000ms, 2625ms total)
T4430 005:408 JLINK_ReadReg(R12)  returns 0x12121212 (0000ms, 2625ms total)
T4430 005:408 JLINK_ReadReg(R13)  returns 0x200088A8 (0000ms, 2625ms total)
T4430 005:408 JLINK_ReadReg(R14)  returns 0x08013CE1 (0000ms, 2625ms total)
T4430 005:408 JLINK_ReadReg(R15)  returns 0x0800024C (0000ms, 2625ms total)
T4430 005:408 JLINK_ReadReg(XPSR)  returns 0x61000000 (0000ms, 2625ms total)
T4430 005:408 JLINK_ReadReg(MSP)  returns 0x200088A8 (0000ms, 2625ms total)
T4430 005:408 JLINK_ReadReg(PSP)  returns 0x20003784 (0000ms, 2625ms total)
T4430 005:408 JLINK_ReadReg(CFBP)  returns 0x00000000 (0000ms, 2625ms total)
T4430 010:498 JLINK_Go() -- CPU_WriteMem(4 bytes @ 0xE0002008) (0005ms, 2630ms total)
T4430 010:604 JLINK_IsHalted()  returns FALSE (0001ms, 2631ms total)
T4430 010:705 JLINK_IsHalted()  returns FALSE (0000ms, 2630ms total)
T4430 010:806 JLINK_IsHalted()  returns FALSE (0001ms, 2631ms total)
T4430 010:907 JLINK_IsHalted()  returns FALSE (0001ms, 2631ms total)
T4430 011:009 JLINK_IsHalted()  returns FALSE (0001ms, 2631ms total)
T4430 011:110 JLINK_ReadMemU32(0xE0001004, 0x0001 Items, ...) -- CPU is running -- CPU_ReadMem(4 bytes @ 0xE0001004) -- Data:  00 00 00 00  returns 0x01 (0000ms, 2630ms total)
T4430 011:110 JLINK_IsHalted()  returns FALSE (0001ms, 2631ms total)
T4430 011:212 JLINK_IsHalted()  returns FALSE (0001ms, 2631ms total)
T4430 011:314 JLINK_IsHalted()  returns FALSE (0001ms, 2631ms total)
T4430 011:415 JLINK_IsHalted()  returns FALSE (0000ms, 2630ms total)
T4430 011:516 JLINK_IsHalted()  returns FALSE (0002ms, 2632ms total)
T4430 011:618 JLINK_IsHalted()  returns FALSE (0000ms, 2630ms total)
T4430 011:719 JLINK_ReadMemU32(0xE0001004, 0x0001 Items, ...) -- CPU is running -- CPU_ReadMem(4 bytes @ 0xE0001004) -- Data:  00 00 00 00  returns 0x01 (0001ms, 2631ms total)
T4430 011:720 JLINK_IsHalted()  returns FALSE (0001ms, 2632ms total)
T4430 011:821 JLINK_IsHalted()  returns FALSE (0000ms, 2631ms total)
T4430 011:922 JLINK_IsHalted()  returns FALSE (0001ms, 2632ms total)
T4430 012:024 JLINK_IsHalted()  returns FALSE (0000ms, 2631ms total)
T4430 012:125 JLINK_IsHalted()  returns FALSE (0000ms, 2631ms total)
T4430 012:226 JLINK_IsHalted()  returns FALSE (0001ms, 2632ms total)
T4430 012:327 JLINK_ReadMemU32(0xE0001004, 0x0001 Items, ...) -- CPU is running -- CPU_ReadMem(4 bytes @ 0xE0001004) -- Data:  00 00 00 00  returns 0x01 (0000ms, 2631ms total)
T4430 012:327 JLINK_IsHalted()  returns FALSE (0001ms, 2632ms total)
T4430 012:429 JLINK_IsHalted()  returns FALSE (0001ms, 2632ms total)
T4430 012:530 JLINK_IsHalted()  returns FALSE (0001ms, 2632ms total)
T4430 012:632 JLINK_IsHalted()  returns FALSE (0001ms, 2632ms total)
T4430 012:733 JLINK_IsHalted()  returns FALSE (0001ms, 2632ms total)
T4430 012:835 JLINK_IsHalted()  returns FALSE (0001ms, 2632ms total)
T4430 012:937 JLINK_ReadMemU32(0xE0001004, 0x0001 Items, ...) -- CPU is running -- CPU_ReadMem(4 bytes @ 0xE0001004) -- Data:  00 00 00 00  returns 0x01 (0001ms, 2632ms total)
T4430 012:938 JLINK_IsHalted()  returns FALSE (0001ms, 2633ms total)
T4430 013:039 JLINK_IsHalted()  returns FALSE (0000ms, 2632ms total)
T4430 013:140 JLINK_IsHalted()  returns FALSE (0001ms, 2633ms total)
T4430 013:241 JLINK_IsHalted()  returns FALSE (0000ms, 2632ms total)
T4430 013:342 JLINK_IsHalted()  returns FALSE (0001ms, 2633ms total)
T4430 013:443 JLINK_IsHalted()  returns FALSE (0001ms, 2633ms total)
T4430 013:545 JLINK_ReadMemU32(0xE0001004, 0x0001 Items, ...) -- CPU is running -- CPU_ReadMem(4 bytes @ 0xE0001004) -- Data:  00 00 00 00  returns 0x01 (0002ms, 2634ms total)
T4430 013:547 JLINK_IsHalted()  returns FALSE (0001ms, 2635ms total)
T4430 013:649 JLINK_IsHalted()  returns FALSE (0000ms, 2634ms total)
T4430 013:750 JLINK_IsHalted()  returns FALSE (0000ms, 2634ms total)
T4430 013:851 JLINK_IsHalted()  returns FALSE (0001ms, 2635ms total)
T4430 013:952 JLINK_IsHalted()  returns FALSE (0000ms, 2634ms total)
T4430 014:053 JLINK_IsHalted()  returns FALSE (0001ms, 2635ms total)
T4430 014:154 JLINK_ReadMemU32(0xE0001004, 0x0001 Items, ...) -- CPU is running -- CPU_ReadMem(4 bytes @ 0xE0001004) -- Data:  00 00 00 00  returns 0x01 (0001ms, 2635ms total)
T4430 014:155 JLINK_IsHalted()  returns FALSE (0001ms, 2636ms total)
T4430 014:257 JLINK_IsHalted()  returns FALSE (0001ms, 2636ms total)
T4430 014:358 JLINK_IsHalted()  returns FALSE (0001ms, 2636ms total)
T4430 014:460 JLINK_IsHalted()  returns FALSE (0000ms, 2635ms total)
T4430 014:561 JLINK_IsHalted()  returns FALSE (0002ms, 2637ms total)
T4430 014:663 JLINK_IsHalted()  returns FALSE (0000ms, 2635ms total)
T4430 014:764 JLINK_ReadMemU32(0xE0001004, 0x0001 Items, ...) -- CPU is running -- CPU_ReadMem(4 bytes @ 0xE0001004) -- Data:  00 00 00 00  returns 0x01 (0001ms, 2636ms total)
T4430 014:765 JLINK_IsHalted()  returns FALSE (0001ms, 2637ms total)
T4430 014:866 JLINK_IsHalted()  returns FALSE (0000ms, 2636ms total)
T4430 014:967 JLINK_IsHalted()  returns FALSE (0001ms, 2637ms total)
T4430 015:068 JLINK_IsHalted()  returns FALSE (0001ms, 2637ms total)
T4430 015:170 JLINK_IsHalted()  returns FALSE (0000ms, 2636ms total)
T4430 015:271 JLINK_IsHalted()  returns FALSE (0001ms, 2637ms total)
T4430 015:372 JLINK_ReadMemU32(0xE0001004, 0x0001 Items, ...) -- CPU is running -- CPU_ReadMem(4 bytes @ 0xE0001004) -- Data:  00 00 00 00  returns 0x01 (0000ms, 2636ms total)
T4430 015:372 JLINK_IsHalted()  returns FALSE (0001ms, 2637ms total)
T4430 015:474 JLINK_IsHalted()  returns FALSE (0001ms, 2637ms total)
T4430 015:575 JLINK_IsHalted()  returns FALSE (0001ms, 2637ms total)
T4430 015:677 JLINK_IsHalted()  returns FALSE (0001ms, 2637ms total)
T4430 015:778 JLINK_IsHalted()  returns FALSE (0000ms, 2636ms total)
T4430 015:879 JLINK_ReadMemU32(0xE0001004, 0x0001 Items, ...) -- CPU is running -- CPU_ReadMem(4 bytes @ 0xE0001004) -- Data:  00 00 00 00  returns 0x01 (0000ms, 2636ms total)
T4430 015:880 JLINK_IsHalted()  returns FALSE (0001ms, 2637ms total)
T4430 015:982 JLINK_IsHalted()  returns FALSE (0000ms, 2636ms total)
T4430 016:083 JLINK_IsHalted()  returns FALSE (0000ms, 2636ms total)
T4430 016:184 JLINK_IsHalted()  returns FALSE (0001ms, 2637ms total)
T4430 016:285 JLINK_IsHalted()  returns FALSE (0000ms, 2636ms total)
T4430 016:386 JLINK_IsHalted()  returns FALSE (0001ms, 2637ms total)
T4430 016:487 JLINK_ReadMemU32(0xE0001004, 0x0001 Items, ...) -- CPU is running -- CPU_ReadMem(4 bytes @ 0xE0001004) -- Data:  00 00 00 00  returns 0x01 (0001ms, 2637ms total)
T4430 016:488 JLINK_IsHalted()  returns FALSE (0001ms, 2638ms total)
T4430 016:590 JLINK_IsHalted()  returns FALSE (0002ms, 2639ms total)
T4430 016:692 JLINK_IsHalted()  returns FALSE (0001ms, 2638ms total)
T4430 016:794 JLINK_IsHalted()  returns FALSE (0000ms, 2637ms total)
T4430 016:895 JLINK_IsHalted()  returns FALSE (0001ms, 2638ms total)
T4430 016:996 JLINK_IsHalted()  returns FALSE (0000ms, 2637ms total)
T4430 017:097 JLINK_ReadMemU32(0xE0001004, 0x0001 Items, ...) -- CPU is running -- CPU_ReadMem(4 bytes @ 0xE0001004) -- Data:  00 00 00 00  returns 0x01 (0001ms, 2638ms total)
T4430 017:098 JLINK_IsHalted()  returns FALSE (0001ms, 2639ms total)
T4430 017:199 JLINK_IsHalted()  returns FALSE (0000ms, 2638ms total)
T4430 017:300 JLINK_IsHalted()  returns FALSE (0001ms, 2639ms total)
T4430 017:401 JLINK_IsHalted()  returns FALSE (0001ms, 2639ms total)
T4430 017:503 JLINK_IsHalted()  returns FALSE (0000ms, 2638ms total)
T4430 017:604 JLINK_IsHalted()  returns FALSE (0002ms, 2640ms total)
T4430 017:706 JLINK_ReadMemU32(0xE0001004, 0x0001 Items, ...) -- CPU is running -- CPU_ReadMem(4 bytes @ 0xE0001004) -- Data:  00 00 00 00  returns 0x01 (0001ms, 2639ms total)
T4430 017:708 JLINK_IsHalted()  returns FALSE (0000ms, 2639ms total)
T4430 017:809 JLINK_IsHalted()  returns FALSE (0001ms, 2640ms total)
T4430 017:910 JLINK_Halt()  returns 0x00 (0003ms, 2642ms total)
T4430 017:913 JLINK_IsHalted()  returns TRUE (0000ms, 2642ms total)
T4430 017:913 JLINK_IsHalted()  returns TRUE (0000ms, 2642ms total)
T4430 017:913 JLINK_IsHalted()  returns TRUE (0000ms, 2642ms total)
T4430 017:913 JLINK_ReadReg(R15)  returns 0x08008D04 (0000ms, 2642ms total)
T4430 017:913 JLINK_ReadReg(XPSR)  returns 0x01000000 (0000ms, 2642ms total)
T4430 017:913 JLINK_ReadMemU32(0xE000ED30, 0x0001 Items, ...) -- CPU_ReadMem(4 bytes @ 0xE000ED30) -- Data:  0B 00 00 00  returns 0x01 (0001ms, 2643ms total)
T4430 017:914 JLINK_ReadMemU32(0xE0001028, 0x0001 Items, ...) -- CPU_ReadMem(4 bytes @ 0xE0001028) -- Data:  00 00 00 00  returns 0x01 (0001ms, 2644ms total)
T4430 017:915 JLINK_ReadMemU32(0xE0001038, 0x0001 Items, ...) -- CPU_ReadMem(4 bytes @ 0xE0001038) -- Data:  00 00 00 00  returns 0x01 (0001ms, 2645ms total)
T4430 017:916 JLINK_ReadMemU32(0xE0001048, 0x0001 Items, ...) -- CPU_ReadMem(4 bytes @ 0xE0001048) -- Data:  00 00 00 00  returns 0x01 (0001ms, 2646ms total)
T4430 017:917 JLINK_ReadMemU32(0xE0001058, 0x0001 Items, ...) -- CPU_ReadMem(4 bytes @ 0xE0001058) -- Data:  00 00 00 00  returns 0x01 (0001ms, 2647ms total)
T4430 017:919 JLINK_ReadReg(R0)  returns 0x00000000 (0000ms, 2647ms total)
T4430 017:919 JLINK_ReadReg(R1)  returns 0x200000B4 (0000ms, 2647ms total)
T4430 017:919 JLINK_ReadReg(R2)  returns 0x02020202 (0000ms, 2647ms total)
T4430 017:919 JLINK_ReadReg(R3)  returns 0x03030303 (0000ms, 2647ms total)
T4430 017:919 JLINK_ReadReg(R4)  returns 0x00000000 (0000ms, 2647ms total)
T4430 017:919 JLINK_ReadReg(R5)  returns 0x05050505 (0000ms, 2647ms total)
T4430 017:919 JLINK_ReadReg(R6)  returns 0x06060606 (0000ms, 2647ms total)
T4430 017:919 JLINK_ReadReg(R7)  returns 0x07070707 (0000ms, 2647ms total)
T4430 017:919 JLINK_ReadReg(R8)  returns 0x08080808 (0000ms, 2647ms total)
T4430 017:919 JLINK_ReadReg(R9)  returns 0x09090909 (0000ms, 2647ms total)
T4430 017:919 JLINK_ReadReg(R10)  returns 0x10101010 (0000ms, 2647ms total)
T4430 017:919 JLINK_ReadReg(R11)  returns 0x11111111 (0000ms, 2647ms total)
T4430 017:919 JLINK_ReadReg(R12)  returns 0x12121212 (0000ms, 2647ms total)
T4430 017:919 JLINK_ReadReg(R13)  returns 0x20003784 (0000ms, 2647ms total)
T4430 017:919 JLINK_ReadReg(R14)  returns 0x08008E97 (0000ms, 2647ms total)
T4430 017:919 JLINK_ReadReg(R15)  returns 0x08008D04 (0000ms, 2647ms total)
T4430 017:919 JLINK_ReadReg(XPSR)  returns 0x01000000 (0000ms, 2647ms total)
T4430 017:919 JLINK_ReadReg(MSP)  returns 0x20008878 (0000ms, 2647ms total)
T4430 017:919 JLINK_ReadReg(PSP)  returns 0x20003784 (0000ms, 2647ms total)
T4430 017:919 JLINK_ReadReg(CFBP)  returns 0x02000000 (0000ms, 2647ms total)
T4430 021:562 JLINK_ReadMem (0x08008D04, 0x003C Bytes, ...) -- CPU_ReadMem(64 bytes @ 0x08008D00) -- Updating C cache (64 bytes @ 0x08008D00) -- Read from C cache (60 bytes @ 0x08008D04) -- Data:  70 47 1D 48 4F F0 FF 01 01 70 00 20 80 F3 09 88 ...  returns 0x00 (0003ms, 2650ms total)
T4430 021:565 JLINK_Step() -- Read from C cache (2 bytes @ 0x08008D04) -- Simulated  returns 0x00 (0000ms, 2650ms total)
T4430 021:565 JLINK_ReadReg(R15)  returns 0x08008E96 (0000ms, 2650ms total)
T4430 021:565 JLINK_ReadReg(XPSR)  returns 0x01000000 (0000ms, 2650ms total)
T4430 021:578 JLINK_ReadReg(R0)  returns 0x00000000 (0000ms, 2650ms total)
T4430 021:578 JLINK_ReadReg(R1)  returns 0x200000B4 (0000ms, 2650ms total)
T4430 021:578 JLINK_ReadReg(R2)  returns 0x02020202 (0000ms, 2650ms total)
T4430 021:578 JLINK_ReadReg(R3)  returns 0x03030303 (0000ms, 2650ms total)
T4430 021:578 JLINK_ReadReg(R4)  returns 0x00000000 (0000ms, 2650ms total)
T4430 021:578 JLINK_ReadReg(R5)  returns 0x05050505 (0000ms, 2650ms total)
T4430 021:578 JLINK_ReadReg(R6)  returns 0x06060606 (0000ms, 2650ms total)
T4430 021:578 JLINK_ReadReg(R7)  returns 0x07070707 (0000ms, 2650ms total)
T4430 021:578 JLINK_ReadReg(R8)  returns 0x08080808 (0000ms, 2650ms total)
T4430 021:578 JLINK_ReadReg(R9)  returns 0x09090909 (0000ms, 2650ms total)
T4430 021:578 JLINK_ReadReg(R10)  returns 0x10101010 (0000ms, 2650ms total)
T4430 021:578 JLINK_ReadReg(R11)  returns 0x11111111 (0000ms, 2650ms total)
T4430 021:578 JLINK_ReadReg(R12)  returns 0x12121212 (0000ms, 2650ms total)
T4430 021:578 JLINK_ReadReg(R13)  returns 0x20003784 (0000ms, 2650ms total)
T4430 021:578 JLINK_ReadReg(R14)  returns 0x08008E97 (0000ms, 2650ms total)
T4430 021:578 JLINK_ReadReg(R15)  returns 0x08008E96 (0000ms, 2650ms total)
T4430 021:578 JLINK_ReadReg(XPSR)  returns 0x01000000 (0000ms, 2650ms total)
T4430 021:578 JLINK_ReadReg(MSP)  returns 0x20008878 (0000ms, 2650ms total)
T4430 021:578 JLINK_ReadReg(PSP)  returns 0x20003784 (0000ms, 2650ms total)
T4430 021:578 JLINK_ReadReg(CFBP)  returns 0x02000000 (0000ms, 2650ms total)
T1360 021:578 JLINK_ReadMem (0x08008E96, 0x0002 Bytes, ...) -- CPU_ReadMem(64 bytes @ 0x08008E80) -- Updating C cache (64 bytes @ 0x08008E80) -- Read from C cache (2 bytes @ 0x08008E96) -- Data:  FF F7  returns 0x00 (0002ms, 2652ms total)
T1360 021:580 JLINK_ReadMem (0x08008E98, 0x003C Bytes, ...) -- CPU_ReadMem(64 bytes @ 0x08008EC0) -- Updating C cache (64 bytes @ 0x08008EC0) -- Read from C cache (60 bytes @ 0x08008E98) -- Data:  DC FE F1 E7 00 B5 87 B0 03 20 00 21 80 22 C5 4B ...  returns 0x00 (0001ms, 2653ms total)
T4430 023:666 JLINK_SetBPEx(Addr = 0x08008E9A, Type = 0xFFFFFFF2)  returns 0x00000002 (0001ms, 2654ms total)
T4430 023:667 JLINK_Go() -- CPU_WriteMem(4 bytes @ 0xE0002008) (0004ms, 2658ms total)
T4430 023:772 JLINK_IsHalted()  returns TRUE (0003ms, 2661ms total)
T4430 023:775 JLINK_Halt()  returns 0x00 (0000ms, 2658ms total)
T4430 023:775 JLINK_IsHalted()  returns TRUE (0000ms, 2658ms total)
T4430 023:775 JLINK_IsHalted()  returns TRUE (0000ms, 2658ms total)
T4430 023:775 JLINK_IsHalted()  returns TRUE (0000ms, 2658ms total)
T4430 023:775 JLINK_ReadReg(R15)  returns 0x08008E9A (0000ms, 2658ms total)
T4430 023:775 JLINK_ReadReg(XPSR)  returns 0x01000000 (0000ms, 2658ms total)
T4430 023:775 JLINK_ClrBPEx(BPHandle = 0x00000002)  returns 0x00 (0000ms, 2658ms total)
T4430 023:775 JLINK_ReadMemU32(0xE000ED30, 0x0001 Items, ...) -- CPU_ReadMem(4 bytes @ 0xE000ED30) -- Data:  0B 00 00 00  returns 0x01 (0001ms, 2659ms total)
T4430 023:776 JLINK_ReadMemU32(0xE0001028, 0x0001 Items, ...) -- CPU_ReadMem(4 bytes @ 0xE0001028) -- Data:  00 00 00 00  returns 0x01 (0001ms, 2660ms total)
T4430 023:777 JLINK_ReadMemU32(0xE0001038, 0x0001 Items, ...) -- CPU_ReadMem(4 bytes @ 0xE0001038) -- Data:  00 00 00 00  returns 0x01 (0001ms, 2661ms total)
T4430 023:778 JLINK_ReadMemU32(0xE0001048, 0x0001 Items, ...) -- CPU_ReadMem(4 bytes @ 0xE0001048) -- Data:  00 00 00 00  returns 0x01 (0001ms, 2662ms total)
T4430 023:779 JLINK_ReadMemU32(0xE0001058, 0x0001 Items, ...) -- CPU_ReadMem(4 bytes @ 0xE0001058) -- Data:  00 00 00 00  returns 0x01 (0001ms, 2663ms total)
T4430 023:780 JLINK_Step() -- CPU_ReadMem(64 bytes @ 0x08008E80) -- Updating C cache (64 bytes @ 0x08008E80) -- Read from C cache (2 bytes @ 0x08008E9A) -- Simulated  returns 0x00 (0001ms, 2664ms total)
T4430 023:781 JLINK_ReadReg(R15)  returns 0x08008E80 (0000ms, 2664ms total)
T4430 023:781 JLINK_ReadReg(XPSR)  returns 0x01000000 (0000ms, 2664ms total)
T4430 023:781 JLINK_ReadReg(R0)  returns 0x00000000 (0000ms, 2664ms total)
T4430 023:781 JLINK_ReadReg(R1)  returns 0x200000B4 (0000ms, 2664ms total)
T4430 023:781 JLINK_ReadReg(R2)  returns 0x02020202 (0000ms, 2664ms total)
T4430 023:781 JLINK_ReadReg(R3)  returns 0x03030303 (0000ms, 2664ms total)
T4430 023:781 JLINK_ReadReg(R4)  returns 0x00000000 (0000ms, 2664ms total)
T4430 023:781 JLINK_ReadReg(R5)  returns 0x05050505 (0000ms, 2664ms total)
T4430 023:781 JLINK_ReadReg(R6)  returns 0x06060606 (0000ms, 2664ms total)
T4430 023:781 JLINK_ReadReg(R7)  returns 0x07070707 (0000ms, 2664ms total)
T4430 023:781 JLINK_ReadReg(R8)  returns 0x08080808 (0000ms, 2664ms total)
T4430 023:781 JLINK_ReadReg(R9)  returns 0x09090909 (0000ms, 2664ms total)
T4430 023:781 JLINK_ReadReg(R10)  returns 0x10101010 (0000ms, 2664ms total)
T4430 023:781 JLINK_ReadReg(R11)  returns 0x11111111 (0000ms, 2664ms total)
T4430 023:781 JLINK_ReadReg(R12)  returns 0x12121212 (0001ms, 2665ms total)
T4430 023:782 JLINK_ReadReg(R13)  returns 0x20003784 (0000ms, 2665ms total)
T4430 023:782 JLINK_ReadReg(R14)  returns 0x08008E9B (0000ms, 2665ms total)
T4430 023:782 JLINK_ReadReg(R15)  returns 0x08008E80 (0000ms, 2665ms total)
T4430 023:782 JLINK_ReadReg(XPSR)  returns 0x01000000 (0000ms, 2665ms total)
T4430 023:782 JLINK_ReadReg(MSP)  returns 0x20008878 (0000ms, 2665ms total)
T4430 023:782 JLINK_ReadReg(PSP)  returns 0x20003784 (0000ms, 2665ms total)
T4430 023:782 JLINK_ReadReg(CFBP)  returns 0x02000000 (0000ms, 2665ms total)
T1360 023:782 JLINK_ReadMem (0x08008E80, 0x003C Bytes, ...) -- Read from C cache (60 bytes @ 0x08008E80) -- Data:  FF F7 3A FF 04 46 C5 48 00 68 40 1C C3 49 08 60 ...  returns 0x00 (0000ms, 2665ms total)
T4430 024:658 JLINK_SetBPEx(Addr = 0x08008E84, Type = 0xFFFFFFF2)  returns 0x00000003 (0000ms, 2665ms total)
T4430 024:658 JLINK_Go() -- CPU_WriteMem(4 bytes @ 0xE0002008) (0004ms, 2669ms total)
T4430 024:763 JLINK_IsHalted()  returns TRUE (0005ms, 2674ms total)
T4430 024:768 JLINK_Halt()  returns 0x00 (0000ms, 2669ms total)
T4430 024:768 JLINK_IsHalted()  returns TRUE (0000ms, 2669ms total)
T4430 024:768 JLINK_IsHalted()  returns TRUE (0000ms, 2669ms total)
T4430 024:768 JLINK_IsHalted()  returns TRUE (0000ms, 2669ms total)
T4430 024:768 JLINK_ReadReg(R15)  returns 0x08008E84 (0000ms, 2669ms total)
T4430 024:768 JLINK_ReadReg(XPSR)  returns 0x01000000 (0000ms, 2669ms total)
T4430 024:768 JLINK_ClrBPEx(BPHandle = 0x00000003)  returns 0x00 (0000ms, 2669ms total)
T4430 024:768 JLINK_ReadMemU32(0xE000ED30, 0x0001 Items, ...) -- CPU_ReadMem(4 bytes @ 0xE000ED30) -- Data:  0B 00 00 00  returns 0x01 (0001ms, 2670ms total)
T4430 024:769 JLINK_ReadMemU32(0xE0001028, 0x0001 Items, ...) -- CPU_ReadMem(4 bytes @ 0xE0001028) -- Data:  00 00 00 00  returns 0x01 (0001ms, 2671ms total)
T4430 024:770 JLINK_ReadMemU32(0xE0001038, 0x0001 Items, ...) -- CPU_ReadMem(4 bytes @ 0xE0001038) -- Data:  00 00 00 00  returns 0x01 (0001ms, 2672ms total)
T4430 024:771 JLINK_ReadMemU32(0xE0001048, 0x0001 Items, ...) -- CPU_ReadMem(4 bytes @ 0xE0001048) -- Data:  00 00 00 00  returns 0x01 (0001ms, 2673ms total)
T4430 024:772 JLINK_ReadMemU32(0xE0001058, 0x0001 Items, ...) -- CPU_ReadMem(4 bytes @ 0xE0001058) -- Data:  00 00 00 00  returns 0x01 (0001ms, 2674ms total)
T4430 024:773 JLINK_Step() -- CPU_ReadMem(64 bytes @ 0x08008E80) -- Updating C cache (64 bytes @ 0x08008E80) -- Read from C cache (2 bytes @ 0x08008E84) -- Simulated  returns 0x00 (0001ms, 2675ms total)
T4430 024:774 JLINK_ReadReg(R15)  returns 0x08008E86 (0000ms, 2675ms total)
T4430 024:774 JLINK_ReadReg(XPSR)  returns 0x01000000 (0000ms, 2675ms total)
T4430 024:774 JLINK_ReadReg(R0)  returns 0x00000000 (0000ms, 2675ms total)
T4430 024:774 JLINK_ReadReg(R1)  returns 0x200000B4 (0000ms, 2675ms total)
T4430 024:774 JLINK_ReadReg(R2)  returns 0x02020202 (0000ms, 2675ms total)
T4430 024:774 JLINK_ReadReg(R3)  returns 0x03030303 (0000ms, 2675ms total)
T4430 024:774 JLINK_ReadReg(R4)  returns 0x00000000 (0000ms, 2675ms total)
T4430 024:774 JLINK_ReadReg(R5)  returns 0x05050505 (0000ms, 2675ms total)
T4430 024:774 JLINK_ReadReg(R6)  returns 0x06060606 (0000ms, 2675ms total)
T4430 024:774 JLINK_ReadReg(R7)  returns 0x07070707 (0000ms, 2675ms total)
T4430 024:774 JLINK_ReadReg(R8)  returns 0x08080808 (0000ms, 2675ms total)
T4430 024:774 JLINK_ReadReg(R9)  returns 0x09090909 (0000ms, 2675ms total)
T4430 024:774 JLINK_ReadReg(R10)  returns 0x10101010 (0000ms, 2675ms total)
T4430 024:774 JLINK_ReadReg(R11)  returns 0x11111111 (0000ms, 2675ms total)
T4430 024:774 JLINK_ReadReg(R12)  returns 0x12121212 (0000ms, 2675ms total)
T4430 024:774 JLINK_ReadReg(R13)  returns 0x20003784 (0000ms, 2675ms total)
T4430 024:774 JLINK_ReadReg(R14)  returns 0x08008E85 (0000ms, 2675ms total)
T4430 024:774 JLINK_ReadReg(R15)  returns 0x08008E86 (0000ms, 2675ms total)
T4430 024:774 JLINK_ReadReg(XPSR)  returns 0x01000000 (0000ms, 2675ms total)
T4430 024:774 JLINK_ReadReg(MSP)  returns 0x20008878 (0000ms, 2675ms total)
T4430 024:774 JLINK_ReadReg(PSP)  returns 0x20003784 (0000ms, 2675ms total)
T4430 024:774 JLINK_ReadReg(CFBP)  returns 0x02000001 (0000ms, 2675ms total)
T1360 024:774 JLINK_ReadMem (0x08008E86, 0x0002 Bytes, ...) -- Read from C cache (2 bytes @ 0x08008E86) -- Data:  C5 48  returns 0x00 (0000ms, 2675ms total)
T1360 024:774 JLINK_ReadMem (0x08008E88, 0x003C Bytes, ...) -- CPU_ReadMem(64 bytes @ 0x08008EC0) -- Updating C cache (64 bytes @ 0x08008EC0) -- Read from C cache (60 bytes @ 0x08008E88) -- Data:  00 68 40 1C C3 49 08 60 20 46 FF F7 35 FF FF F7 ...  returns 0x00 (0001ms, 2676ms total)
T4430 025:241 JLINK_Step() -- Read from C cache (2 bytes @ 0x08008E86) -- CPU_ReadMem(64 bytes @ 0x08009180) -- Updating C cache (64 bytes @ 0x08009180) -- Read from C cache (4 bytes @ 0x0800919C) -- Simulated  returns 0x00 (0002ms, 2678ms total)
T4430 025:243 JLINK_ReadReg(R15)  returns 0x08008E88 (0000ms, 2678ms total)
T4430 025:243 JLINK_ReadReg(XPSR)  returns 0x01000000 (0000ms, 2678ms total)
T4430 025:243 JLINK_Step() -- Read from C cache (2 bytes @ 0x08008E88) -- CPU_ReadMem(64 bytes @ 0x20000080) -- Updating C cache (64 bytes @ 0x20000080) -- Read from C cache (4 bytes @ 0x200000B4) -- Simulated  returns 0x00 (0001ms, 2679ms total)
T4430 025:244 JLINK_ReadReg(R15)  returns 0x08008E8A (0000ms, 2679ms total)
T4430 025:244 JLINK_ReadReg(XPSR)  returns 0x01000000 (0000ms, 2679ms total)
T4430 025:244 JLINK_Step() -- Read from C cache (2 bytes @ 0x08008E8A) -- Simulated  returns 0x00 (0000ms, 2679ms total)
T4430 025:244 JLINK_ReadReg(R15)  returns 0x08008E8C (0000ms, 2679ms total)
T4430 025:244 JLINK_ReadReg(XPSR)  returns 0x01000000 (0000ms, 2679ms total)
T4430 025:244 JLINK_Step() -- Read from C cache (2 bytes @ 0x08008E8C) -- Read from C cache (4 bytes @ 0x0800919C) -- Simulated  returns 0x00 (0000ms, 2679ms total)
T4430 025:244 JLINK_ReadReg(R15)  returns 0x08008E8E (0000ms, 2679ms total)
T4430 025:244 JLINK_ReadReg(XPSR)  returns 0x01000000 (0000ms, 2679ms total)
T4430 025:244 JLINK_Step() -- Read from C cache (2 bytes @ 0x08008E8E) -- CPU_WriteMem(4 bytes @ 0x200000B4) -- Simulated  returns 0x00 (0001ms, 2680ms total)
T4430 025:245 JLINK_ReadReg(R15)  returns 0x08008E90 (0000ms, 2680ms total)
T4430 025:245 JLINK_ReadReg(XPSR)  returns 0x01000000 (0000ms, 2680ms total)
T4430 025:245 JLINK_ReadReg(R0)  returns 0x009B4CF1 (0000ms, 2680ms total)
T4430 025:245 JLINK_ReadReg(R1)  returns 0x200000B4 (0000ms, 2680ms total)
T4430 025:245 JLINK_ReadReg(R2)  returns 0x02020202 (0000ms, 2680ms total)
T4430 025:245 JLINK_ReadReg(R3)  returns 0x03030303 (0000ms, 2680ms total)
T4430 025:245 JLINK_ReadReg(R4)  returns 0x00000000 (0000ms, 2680ms total)
T4430 025:245 JLINK_ReadReg(R5)  returns 0x05050505 (0000ms, 2680ms total)
T4430 025:245 JLINK_ReadReg(R6)  returns 0x06060606 (0000ms, 2680ms total)
T4430 025:245 JLINK_ReadReg(R7)  returns 0x07070707 (0000ms, 2680ms total)
T4430 025:245 JLINK_ReadReg(R8)  returns 0x08080808 (0000ms, 2680ms total)
T4430 025:246 JLINK_ReadReg(R9)  returns 0x09090909 (0000ms, 2680ms total)
T4430 025:246 JLINK_ReadReg(R10)  returns 0x10101010 (0000ms, 2680ms total)
T4430 025:246 JLINK_ReadReg(R11)  returns 0x11111111 (0000ms, 2680ms total)
T4430 025:246 JLINK_ReadReg(R12)  returns 0x12121212 (0000ms, 2680ms total)
T4430 025:246 JLINK_ReadReg(R13)  returns 0x20003784 (0000ms, 2680ms total)
T4430 025:246 JLINK_ReadReg(R14)  returns 0x08008E85 (0000ms, 2680ms total)
T4430 025:246 JLINK_ReadReg(R15)  returns 0x08008E90 (0000ms, 2680ms total)
T4430 025:246 JLINK_ReadReg(XPSR)  returns 0x01000000 (0000ms, 2680ms total)
T4430 025:246 JLINK_ReadReg(MSP)  returns 0x20008878 (0000ms, 2680ms total)
T4430 025:246 JLINK_ReadReg(PSP)  returns 0x20003784 (0000ms, 2680ms total)
T4430 025:246 JLINK_ReadReg(CFBP)  returns 0x02000001 (0000ms, 2680ms total)
T1360 025:247 JLINK_ReadMem (0x08008E90, 0x003C Bytes, ...) -- Read from C cache (60 bytes @ 0x08008E90) -- Data:  20 46 FF F7 35 FF FF F7 DC FE F1 E7 00 B5 87 B0 ...  returns 0x00 (0000ms, 2680ms total)
T4430 025:258 JLINK_Step() -- Read from C cache (2 bytes @ 0x08008E90) -- Simulated  returns 0x00 (0000ms, 2680ms total)
T4430 025:258 JLINK_ReadReg(R15)  returns 0x08008E92 (0000ms, 2680ms total)
T4430 025:258 JLINK_ReadReg(XPSR)  returns 0x01000000 (0000ms, 2680ms total)
T4430 025:258 JLINK_SetBPEx(Addr = 0x08008E96, Type = 0xFFFFFFF2)  returns 0x00000004 (0000ms, 2680ms total)
T4430 025:258 JLINK_Go() -- CPU_WriteMem(4 bytes @ 0xE0002008) (0003ms, 2683ms total)
T4430 025:361 JLINK_IsHalted()  returns TRUE (0004ms, 2687ms total)
T4430 025:365 JLINK_Halt()  returns 0x00 (0000ms, 2683ms total)
T4430 025:365 JLINK_IsHalted()  returns TRUE (0000ms, 2683ms total)
T4430 025:365 JLINK_IsHalted()  returns TRUE (0000ms, 2683ms total)
T4430 025:365 JLINK_IsHalted()  returns TRUE (0000ms, 2683ms total)
T4430 025:365 JLINK_ReadReg(R15)  returns 0x08008E96 (0000ms, 2683ms total)
T4430 025:365 JLINK_ReadReg(XPSR)  returns 0x01000000 (0000ms, 2683ms total)
T4430 025:365 JLINK_ClrBPEx(BPHandle = 0x00000004)  returns 0x00 (0000ms, 2683ms total)
T4430 025:365 JLINK_ReadMemU32(0xE000ED30, 0x0001 Items, ...) -- CPU_ReadMem(4 bytes @ 0xE000ED30) -- Data:  0B 00 00 00  returns 0x01 (0001ms, 2684ms total)
T4430 025:366 JLINK_ReadMemU32(0xE0001028, 0x0001 Items, ...) -- CPU_ReadMem(4 bytes @ 0xE0001028) -- Data:  00 00 00 00  returns 0x01 (0001ms, 2685ms total)
T4430 025:367 JLINK_ReadMemU32(0xE0001038, 0x0001 Items, ...) -- CPU_ReadMem(4 bytes @ 0xE0001038) -- Data:  00 00 00 00  returns 0x01 (0001ms, 2686ms total)
T4430 025:368 JLINK_ReadMemU32(0xE0001048, 0x0001 Items, ...) -- CPU_ReadMem(4 bytes @ 0xE0001048) -- Data:  00 00 00 00  returns 0x01 (0001ms, 2687ms total)
T4430 025:369 JLINK_ReadMemU32(0xE0001058, 0x0001 Items, ...) -- CPU_ReadMem(4 bytes @ 0xE0001058) -- Data:  00 00 00 00  returns 0x01 (0001ms, 2688ms total)
T4430 025:370 JLINK_ReadReg(R0)  returns 0x00000000 (0000ms, 2688ms total)
T4430 025:370 JLINK_ReadReg(R1)  returns 0x200000B4 (0000ms, 2688ms total)
T4430 025:370 JLINK_ReadReg(R2)  returns 0x02020202 (0000ms, 2688ms total)
T4430 025:370 JLINK_ReadReg(R3)  returns 0x03030303 (0000ms, 2688ms total)
T4430 025:370 JLINK_ReadReg(R4)  returns 0x00000000 (0001ms, 2689ms total)
T4430 025:371 JLINK_ReadReg(R5)  returns 0x05050505 (0000ms, 2689ms total)
T4430 025:371 JLINK_ReadReg(R6)  returns 0x06060606 (0000ms, 2689ms total)
T4430 025:371 JLINK_ReadReg(R7)  returns 0x07070707 (0000ms, 2689ms total)
T4430 025:371 JLINK_ReadReg(R8)  returns 0x08080808 (0000ms, 2689ms total)
T4430 025:371 JLINK_ReadReg(R9)  returns 0x09090909 (0000ms, 2689ms total)
T4430 025:371 JLINK_ReadReg(R10)  returns 0x10101010 (0000ms, 2689ms total)
T4430 025:371 JLINK_ReadReg(R11)  returns 0x11111111 (0000ms, 2689ms total)
T4430 025:371 JLINK_ReadReg(R12)  returns 0x12121212 (0000ms, 2689ms total)
T4430 025:371 JLINK_ReadReg(R13)  returns 0x20003784 (0000ms, 2689ms total)
T4430 025:371 JLINK_ReadReg(R14)  returns 0x08008E97 (0000ms, 2689ms total)
T4430 025:371 JLINK_ReadReg(R15)  returns 0x08008E96 (0000ms, 2689ms total)
T4430 025:371 JLINK_ReadReg(XPSR)  returns 0x01000000 (0000ms, 2689ms total)
T4430 025:371 JLINK_ReadReg(MSP)  returns 0x20008878 (0000ms, 2689ms total)
T4430 025:371 JLINK_ReadReg(PSP)  returns 0x20003784 (0000ms, 2689ms total)
T4430 025:371 JLINK_ReadReg(CFBP)  returns 0x02000000 (0000ms, 2689ms total)
T1360 025:371 JLINK_ReadMem (0x08008E96, 0x0002 Bytes, ...) -- CPU_ReadMem(64 bytes @ 0x08008E80) -- Updating C cache (64 bytes @ 0x08008E80) -- Read from C cache (2 bytes @ 0x08008E96) -- Data:  FF F7  returns 0x00 (0001ms, 2690ms total)
T1360 025:372 JLINK_ReadMem (0x08008E98, 0x003C Bytes, ...) -- CPU_ReadMem(64 bytes @ 0x08008EC0) -- Updating C cache (64 bytes @ 0x08008EC0) -- Read from C cache (60 bytes @ 0x08008E98) -- Data:  DC FE F1 E7 00 B5 87 B0 03 20 00 21 80 22 C5 4B ...  returns 0x00 (0001ms, 2691ms total)
T4430 026:010 JLINK_SetBPEx(Addr = 0x08008E9A, Type = 0xFFFFFFF2)  returns 0x00000005 (0000ms, 2691ms total)
T4430 026:010 JLINK_Go() -- CPU_WriteMem(4 bytes @ 0xE0002008) (0003ms, 2694ms total)
T4430 026:113 JLINK_IsHalted()  returns TRUE (0004ms, 2698ms total)
T4430 026:117 JLINK_Halt()  returns 0x00 (0000ms, 2694ms total)
T4430 026:117 JLINK_IsHalted()  returns TRUE (0000ms, 2694ms total)
T4430 026:117 JLINK_IsHalted()  returns TRUE (0000ms, 2694ms total)
T4430 026:117 JLINK_IsHalted()  returns TRUE (0000ms, 2694ms total)
T4430 026:117 JLINK_ReadReg(R15)  returns 0x08008E9A (0000ms, 2694ms total)
T4430 026:117 JLINK_ReadReg(XPSR)  returns 0x01000000 (0000ms, 2694ms total)
T4430 026:117 JLINK_ClrBPEx(BPHandle = 0x00000005)  returns 0x00 (0000ms, 2694ms total)
T4430 026:117 JLINK_ReadMemU32(0xE000ED30, 0x0001 Items, ...) -- CPU_ReadMem(4 bytes @ 0xE000ED30) -- Data:  0B 00 00 00  returns 0x01 (0001ms, 2695ms total)
T4430 026:118 JLINK_ReadMemU32(0xE0001028, 0x0001 Items, ...) -- CPU_ReadMem(4 bytes @ 0xE0001028) -- Data:  00 00 00 00  returns 0x01 (0001ms, 2696ms total)
T4430 026:119 JLINK_ReadMemU32(0xE0001038, 0x0001 Items, ...) -- CPU_ReadMem(4 bytes @ 0xE0001038) -- Data:  00 00 00 00  returns 0x01 (0001ms, 2697ms total)
T4430 026:120 JLINK_ReadMemU32(0xE0001048, 0x0001 Items, ...) -- CPU_ReadMem(4 bytes @ 0xE0001048) -- Data:  00 00 00 00  returns 0x01 (0001ms, 2698ms total)
T4430 026:121 JLINK_ReadMemU32(0xE0001058, 0x0001 Items, ...) -- CPU_ReadMem(4 bytes @ 0xE0001058) -- Data:  00 00 00 00  returns 0x01 (0001ms, 2699ms total)
T4430 026:122 JLINK_Step() -- CPU_ReadMem(64 bytes @ 0x08008E80) -- Updating C cache (64 bytes @ 0x08008E80) -- Read from C cache (2 bytes @ 0x08008E9A) -- Simulated  returns 0x00 (0001ms, 2700ms total)
T4430 026:123 JLINK_ReadReg(R15)  returns 0x08008E80 (0000ms, 2700ms total)
T4430 026:123 JLINK_ReadReg(XPSR)  returns 0x01000000 (0000ms, 2700ms total)
T4430 026:123 JLINK_ReadReg(R0)  returns 0x00000000 (0000ms, 2700ms total)
T4430 026:123 JLINK_ReadReg(R1)  returns 0x200000B4 (0000ms, 2700ms total)
T4430 026:123 JLINK_ReadReg(R2)  returns 0x02020202 (0000ms, 2700ms total)
T4430 026:123 JLINK_ReadReg(R3)  returns 0x03030303 (0000ms, 2700ms total)
T4430 026:123 JLINK_ReadReg(R4)  returns 0x00000000 (0000ms, 2700ms total)
T4430 026:123 JLINK_ReadReg(R5)  returns 0x05050505 (0001ms, 2701ms total)
T4430 026:124 JLINK_ReadReg(R6)  returns 0x06060606 (0000ms, 2701ms total)
T4430 026:124 JLINK_ReadReg(R7)  returns 0x07070707 (0000ms, 2701ms total)
T4430 026:124 JLINK_ReadReg(R8)  returns 0x08080808 (0000ms, 2701ms total)
T4430 026:124 JLINK_ReadReg(R9)  returns 0x09090909 (0000ms, 2701ms total)
T4430 026:124 JLINK_ReadReg(R10)  returns 0x10101010 (0000ms, 2701ms total)
T4430 026:124 JLINK_ReadReg(R11)  returns 0x11111111 (0000ms, 2701ms total)
T4430 026:124 JLINK_ReadReg(R12)  returns 0x12121212 (0000ms, 2701ms total)
T4430 026:124 JLINK_ReadReg(R13)  returns 0x20003784 (0000ms, 2701ms total)
T4430 026:124 JLINK_ReadReg(R14)  returns 0x08008E9B (0000ms, 2701ms total)
T4430 026:124 JLINK_ReadReg(R15)  returns 0x08008E80 (0000ms, 2701ms total)
T4430 026:124 JLINK_ReadReg(XPSR)  returns 0x01000000 (0000ms, 2701ms total)
T4430 026:124 JLINK_ReadReg(MSP)  returns 0x20008878 (0000ms, 2701ms total)
T4430 026:124 JLINK_ReadReg(PSP)  returns 0x20003784 (0000ms, 2701ms total)
T4430 026:124 JLINK_ReadReg(CFBP)  returns 0x02000000 (0000ms, 2701ms total)
T1360 026:124 JLINK_ReadMem (0x08008E80, 0x003C Bytes, ...) -- Read from C cache (60 bytes @ 0x08008E80) -- Data:  FF F7 3A FF 04 46 C5 48 00 68 40 1C C3 49 08 60 ...  returns 0x00 (0000ms, 2701ms total)
T4430 026:706 JLINK_SetBPEx(Addr = 0x08008E84, Type = 0xFFFFFFF2)  returns 0x00000006 (0000ms, 2701ms total)
T4430 026:706 JLINK_Go() -- CPU_WriteMem(4 bytes @ 0xE0002008) (0004ms, 2705ms total)
T4430 026:811 JLINK_IsHalted()  returns TRUE (0004ms, 2709ms total)
T4430 026:815 JLINK_Halt()  returns 0x00 (0000ms, 2705ms total)
T4430 026:815 JLINK_IsHalted()  returns TRUE (0000ms, 2705ms total)
T4430 026:815 JLINK_IsHalted()  returns TRUE (0000ms, 2705ms total)
T4430 026:815 JLINK_IsHalted()  returns TRUE (0000ms, 2705ms total)
T4430 026:815 JLINK_ReadReg(R15)  returns 0x08008E84 (0000ms, 2705ms total)
T4430 026:815 JLINK_ReadReg(XPSR)  returns 0x01000000 (0000ms, 2705ms total)
T4430 026:815 JLINK_ClrBPEx(BPHandle = 0x00000006)  returns 0x00 (0000ms, 2705ms total)
T4430 026:815 JLINK_ReadMemU32(0xE000ED30, 0x0001 Items, ...) -- CPU_ReadMem(4 bytes @ 0xE000ED30) -- Data:  0B 00 00 00  returns 0x01 (0000ms, 2705ms total)
T4430 026:815 JLINK_ReadMemU32(0xE0001028, 0x0001 Items, ...) -- CPU_ReadMem(4 bytes @ 0xE0001028) -- Data:  00 00 00 00  returns 0x01 (0001ms, 2706ms total)
T4430 026:816 JLINK_ReadMemU32(0xE0001038, 0x0001 Items, ...) -- CPU_ReadMem(4 bytes @ 0xE0001038) -- Data:  00 00 00 00  returns 0x01 (0001ms, 2707ms total)
T4430 026:817 JLINK_ReadMemU32(0xE0001048, 0x0001 Items, ...) -- CPU_ReadMem(4 bytes @ 0xE0001048) -- Data:  00 00 00 00  returns 0x01 (0001ms, 2708ms total)
T4430 026:818 JLINK_ReadMemU32(0xE0001058, 0x0001 Items, ...) -- CPU_ReadMem(4 bytes @ 0xE0001058) -- Data:  00 00 00 00  returns 0x01 (0001ms, 2709ms total)
T4430 026:819 JLINK_Step() -- CPU_ReadMem(64 bytes @ 0x08008E80) -- Updating C cache (64 bytes @ 0x08008E80) -- Read from C cache (2 bytes @ 0x08008E84) -- Simulated  returns 0x00 (0001ms, 2710ms total)
T4430 026:820 JLINK_ReadReg(R15)  returns 0x08008E86 (0000ms, 2710ms total)
T4430 026:820 JLINK_ReadReg(XPSR)  returns 0x01000000 (0000ms, 2710ms total)
T4430 026:820 JLINK_ReadReg(R0)  returns 0x00000000 (0000ms, 2710ms total)
T4430 026:820 JLINK_ReadReg(R1)  returns 0x200000B4 (0000ms, 2710ms total)
T4430 026:820 JLINK_ReadReg(R2)  returns 0x02020202 (0000ms, 2710ms total)
T4430 026:820 JLINK_ReadReg(R3)  returns 0x03030303 (0000ms, 2710ms total)
T4430 026:820 JLINK_ReadReg(R4)  returns 0x00000000 (0000ms, 2710ms total)
T4430 026:820 JLINK_ReadReg(R5)  returns 0x05050505 (0000ms, 2710ms total)
T4430 026:820 JLINK_ReadReg(R6)  returns 0x06060606 (0000ms, 2710ms total)
T4430 026:820 JLINK_ReadReg(R7)  returns 0x07070707 (0000ms, 2710ms total)
T4430 026:820 JLINK_ReadReg(R8)  returns 0x08080808 (0000ms, 2710ms total)
T4430 026:820 JLINK_ReadReg(R9)  returns 0x09090909 (0000ms, 2710ms total)
T4430 026:820 JLINK_ReadReg(R10)  returns 0x10101010 (0000ms, 2710ms total)
T4430 026:820 JLINK_ReadReg(R11)  returns 0x11111111 (0000ms, 2710ms total)
T4430 026:820 JLINK_ReadReg(R12)  returns 0x12121212 (0000ms, 2710ms total)
T4430 026:820 JLINK_ReadReg(R13)  returns 0x20003784 (0000ms, 2710ms total)
T4430 026:820 JLINK_ReadReg(R14)  returns 0x08008E85 (0000ms, 2710ms total)
T4430 026:820 JLINK_ReadReg(R15)  returns 0x08008E86 (0000ms, 2710ms total)
T4430 026:820 JLINK_ReadReg(XPSR)  returns 0x01000000 (0000ms, 2710ms total)
T4430 026:820 JLINK_ReadReg(MSP)  returns 0x20008878 (0000ms, 2710ms total)
T4430 026:820 JLINK_ReadReg(PSP)  returns 0x20003784 (0000ms, 2710ms total)
T4430 026:820 JLINK_ReadReg(CFBP)  returns 0x02000001 (0000ms, 2710ms total)
T1360 026:821 JLINK_ReadMem (0x08008E86, 0x0002 Bytes, ...) -- Read from C cache (2 bytes @ 0x08008E86) -- Data:  C5 48  returns 0x00 (0000ms, 2710ms total)
T1360 026:821 JLINK_ReadMem (0x08008E88, 0x003C Bytes, ...) -- CPU_ReadMem(64 bytes @ 0x08008EC0) -- Updating C cache (64 bytes @ 0x08008EC0) -- Read from C cache (60 bytes @ 0x08008E88) -- Data:  00 68 40 1C C3 49 08 60 20 46 FF F7 35 FF FF F7 ...  returns 0x00 (0001ms, 2711ms total)
T4430 027:258 JLINK_Step() -- Read from C cache (2 bytes @ 0x08008E86) -- CPU_ReadMem(64 bytes @ 0x08009180) -- Updating C cache (64 bytes @ 0x08009180) -- Read from C cache (4 bytes @ 0x0800919C) -- Simulated  returns 0x00 (0002ms, 2713ms total)
T4430 027:260 JLINK_ReadReg(R15)  returns 0x08008E88 (0000ms, 2713ms total)
T4430 027:260 JLINK_ReadReg(XPSR)  returns 0x01000000 (0000ms, 2713ms total)
T4430 027:260 JLINK_Step() -- Read from C cache (2 bytes @ 0x08008E88) -- CPU_ReadMem(64 bytes @ 0x20000080) -- Updating C cache (64 bytes @ 0x20000080) -- Read from C cache (4 bytes @ 0x200000B4) -- Simulated  returns 0x00 (0001ms, 2714ms total)
T4430 027:261 JLINK_ReadReg(R15)  returns 0x08008E8A (0000ms, 2714ms total)
T4430 027:261 JLINK_ReadReg(XPSR)  returns 0x01000000 (0000ms, 2714ms total)
T4430 027:261 JLINK_Step() -- Read from C cache (2 bytes @ 0x08008E8A) -- Simulated  returns 0x00 (0000ms, 2714ms total)
T4430 027:261 JLINK_ReadReg(R15)  returns 0x08008E8C (0000ms, 2714ms total)
T4430 027:261 JLINK_ReadReg(XPSR)  returns 0x01000000 (0000ms, 2714ms total)
T4430 027:262 JLINK_Step() -- Read from C cache (2 bytes @ 0x08008E8C) -- Read from C cache (4 bytes @ 0x0800919C) -- Simulated  returns 0x00 (0000ms, 2714ms total)
T4430 027:262 JLINK_ReadReg(R15)  returns 0x08008E8E (0000ms, 2714ms total)
T4430 027:262 JLINK_ReadReg(XPSR)  returns 0x01000000 (0000ms, 2714ms total)
T4430 027:262 JLINK_Step() -- Read from C cache (2 bytes @ 0x08008E8E) -- CPU_WriteMem(4 bytes @ 0x200000B4) -- Simulated  returns 0x00 (0000ms, 2714ms total)
T4430 027:262 JLINK_ReadReg(R15)  returns 0x08008E90 (0000ms, 2714ms total)
T4430 027:262 JLINK_ReadReg(XPSR)  returns 0x01000000 (0000ms, 2714ms total)
T4430 027:263 JLINK_ReadReg(R0)  returns 0x009B4CF2 (0000ms, 2714ms total)
T4430 027:263 JLINK_ReadReg(R1)  returns 0x200000B4 (0000ms, 2714ms total)
T4430 027:263 JLINK_ReadReg(R2)  returns 0x02020202 (0000ms, 2714ms total)
T4430 027:263 JLINK_ReadReg(R3)  returns 0x03030303 (0000ms, 2714ms total)
T4430 027:263 JLINK_ReadReg(R4)  returns 0x00000000 (0000ms, 2714ms total)
T4430 027:263 JLINK_ReadReg(R5)  returns 0x05050505 (0000ms, 2714ms total)
T4430 027:263 JLINK_ReadReg(R6)  returns 0x06060606 (0000ms, 2714ms total)
T4430 027:263 JLINK_ReadReg(R7)  returns 0x07070707 (0000ms, 2714ms total)
T4430 027:263 JLINK_ReadReg(R8)  returns 0x08080808 (0000ms, 2714ms total)
T4430 027:263 JLINK_ReadReg(R9)  returns 0x09090909 (0000ms, 2714ms total)
T4430 027:263 JLINK_ReadReg(R10)  returns 0x10101010 (0000ms, 2714ms total)
T4430 027:263 JLINK_ReadReg(R11)  returns 0x11111111 (0000ms, 2714ms total)
T4430 027:263 JLINK_ReadReg(R12)  returns 0x12121212 (0000ms, 2714ms total)
T4430 027:263 JLINK_ReadReg(R13)  returns 0x20003784 (0000ms, 2714ms total)
T4430 027:263 JLINK_ReadReg(R14)  returns 0x08008E85 (0000ms, 2714ms total)
T4430 027:263 JLINK_ReadReg(R15)  returns 0x08008E90 (0000ms, 2714ms total)
T4430 027:263 JLINK_ReadReg(XPSR)  returns 0x01000000 (0000ms, 2714ms total)
T4430 027:263 JLINK_ReadReg(MSP)  returns 0x20008878 (0000ms, 2714ms total)
T4430 027:263 JLINK_ReadReg(PSP)  returns 0x20003784 (0000ms, 2714ms total)
T4430 027:263 JLINK_ReadReg(CFBP)  returns 0x02000001 (0000ms, 2714ms total)
T1360 027:263 JLINK_ReadMem (0x08008E90, 0x003C Bytes, ...) -- Read from C cache (60 bytes @ 0x08008E90) -- Data:  20 46 FF F7 35 FF FF F7 DC FE F1 E7 00 B5 87 B0 ...  returns 0x00 (0000ms, 2714ms total)
T4430 027:290 JLINK_Step() -- Read from C cache (2 bytes @ 0x08008E90) -- Simulated  returns 0x00 (0000ms, 2714ms total)
T4430 027:290 JLINK_ReadReg(R15)  returns 0x08008E92 (0000ms, 2714ms total)
T4430 027:290 JLINK_ReadReg(XPSR)  returns 0x01000000 (0000ms, 2714ms total)
T4430 027:290 JLINK_SetBPEx(Addr = 0x08008E96, Type = 0xFFFFFFF2)  returns 0x00000007 (0000ms, 2714ms total)
T4430 027:290 JLINK_Go() -- CPU_WriteMem(4 bytes @ 0xE0002008) (0003ms, 2717ms total)
T4430 027:394 JLINK_IsHalted()  returns TRUE (0004ms, 2721ms total)
T4430 027:398 JLINK_Halt()  returns 0x00 (0000ms, 2717ms total)
T4430 027:398 JLINK_IsHalted()  returns TRUE (0000ms, 2717ms total)
T4430 027:398 JLINK_IsHalted()  returns TRUE (0000ms, 2717ms total)
T4430 027:398 JLINK_IsHalted()  returns TRUE (0000ms, 2717ms total)
T4430 027:398 JLINK_ReadReg(R15)  returns 0x08008E96 (0000ms, 2717ms total)
T4430 027:398 JLINK_ReadReg(XPSR)  returns 0x01000000 (0000ms, 2717ms total)
T4430 027:398 JLINK_ClrBPEx(BPHandle = 0x00000007)  returns 0x00 (0000ms, 2717ms total)
T4430 027:398 JLINK_ReadMemU32(0xE000ED30, 0x0001 Items, ...) -- CPU_ReadMem(4 bytes @ 0xE000ED30) -- Data:  0B 00 00 00  returns 0x01 (0001ms, 2718ms total)
T4430 027:399 JLINK_ReadMemU32(0xE0001028, 0x0001 Items, ...) -- CPU_ReadMem(4 bytes @ 0xE0001028) -- Data:  00 00 00 00  returns 0x01 (0000ms, 2718ms total)
